time	V(bus02)	V(bus03)	V(bus04)	V(vinn)	V(vinp)
Step Information: Ibias=63µ  (Run: 1/3)
0.000000000000000e+00	8.406454e-01	7.490258e-01	8.711152e-01	1.000000e+00	1.500000e+00
3.233124996768311e-04	8.403791e-01	7.490555e-01	8.709226e-01	1.016166e+00	1.483834e+00
6.162812496768311e-04	8.401279e-01	7.490842e-01	8.707360e-01	1.030814e+00	1.469186e+00
8.115937496768310e-04	8.399515e-01	7.491052e-01	8.706000e-01	1.040580e+00	1.459420e+00
9.092499996768310e-04	8.398591e-01	7.491165e-01	8.705267e-01	1.045462e+00	1.454538e+00
1.006906249676831e-03	8.397632e-01	7.491285e-01	8.704484e-01	1.050345e+00	1.449655e+00
1.104562499676831e-03	8.396628e-01	7.491416e-01	8.703640e-01	1.055228e+00	1.444772e+00
1.202218749676831e-03	8.395568e-01	7.491558e-01	8.702718e-01	1.060111e+00	1.439889e+00
1.299874999676831e-03	8.394438e-01	7.491714e-01	8.701699e-01	1.064994e+00	1.435006e+00
1.397531249676831e-03	8.393223e-01	7.491890e-01	8.700560e-01	1.069877e+00	1.430123e+00
1.495187499676831e-03	8.391900e-01	7.492089e-01	8.699272e-01	1.074759e+00	1.425241e+00
1.592843749676832e-03	8.390447e-01	7.492316e-01	8.697798e-01	1.079642e+00	1.420358e+00
1.690499999676832e-03	8.388832e-01	7.492578e-01	8.696096e-01	1.084525e+00	1.415475e+00
1.788156249676832e-03	8.387021e-01	7.492883e-01	8.694115e-01	1.089408e+00	1.410592e+00
1.885812499676832e-03	8.384969e-01	7.493241e-01	8.691795e-01	1.094291e+00	1.405709e+00
1.983468749676832e-03	8.382628e-01	7.493662e-01	8.689063e-01	1.099173e+00	1.400827e+00
2.081124999676832e-03	8.379938e-01	7.494158e-01	8.685836e-01	1.104056e+00	1.395944e+00
2.178781249676832e-03	8.376830e-01	7.494746e-01	8.682017e-01	1.108939e+00	1.391061e+00
2.276437499676832e-03	8.373224e-01	7.495444e-01	8.677491e-01	1.113822e+00	1.386178e+00
2.374093749676832e-03	8.369027e-01	7.496269e-01	8.672130e-01	1.118705e+00	1.381295e+00
2.471749999676832e-03	8.364134e-01	7.497245e-01	8.665785e-01	1.123587e+00	1.376413e+00
2.569406249676832e-03	8.358425e-01	7.498398e-01	8.658289e-01	1.128470e+00	1.371530e+00
2.667062499676832e-03	8.351765e-01	7.499755e-01	8.649457e-01	1.133353e+00	1.366647e+00
2.764718749676833e-03	8.344003e-01	7.501348e-01	8.639084e-01	1.138236e+00	1.361764e+00
2.862374999676833e-03	8.334975e-01	7.503211e-01	8.626946e-01	1.143119e+00	1.356881e+00
2.960031249676833e-03	8.324504e-01	7.505380e-01	8.612810e-01	1.148002e+00	1.351998e+00
3.057687499676833e-03	8.312402e-01	7.507890e-01	8.596431e-01	1.152884e+00	1.347116e+00
3.155343749676833e-03	8.298473e-01	7.510778e-01	8.577561e-01	1.157767e+00	1.342233e+00
3.252999999676833e-03	8.282521e-01	7.514081e-01	8.555959e-01	1.162650e+00	1.337350e+00
3.350656249676833e-03	8.264352e-01	7.517830e-01	8.531401e-01	1.167533e+00	1.332467e+00
3.448312499676833e-03	8.243781e-01	7.522055e-01	8.503684e-01	1.172416e+00	1.327584e+00
3.545968749676833e-03	8.220638e-01	7.526779e-01	8.472642e-01	1.177298e+00	1.322702e+00
3.643624999676833e-03	8.194771e-01	7.532017e-01	8.438151e-01	1.182181e+00	1.317819e+00
3.741281249676833e-03	8.166053e-01	7.537779e-01	8.400136e-01	1.187064e+00	1.312936e+00
3.838937499676833e-03	8.134383e-01	7.544063e-01	8.358576e-01	1.191947e+00	1.308053e+00
3.936593749676833e-03	8.099688e-01	7.550863e-01	8.313506e-01	1.196830e+00	1.303170e+00
4.034249999676833e-03	8.061923e-01	7.558159e-01	8.265017e-01	1.201712e+00	1.298288e+00
4.131906249676832e-03	8.021072e-01	7.565928e-01	8.213251e-01	1.206595e+00	1.293405e+00
4.229562499676832e-03	7.977141e-01	7.574136e-01	8.158402e-01	1.211478e+00	1.288522e+00
4.327218749676832e-03	7.930160e-01	7.582744e-01	8.100706e-01	1.216361e+00	1.283639e+00
4.424874999676831e-03	7.880180e-01	7.591710e-01	8.040439e-01	1.221244e+00	1.278756e+00
4.522531249676831e-03	7.827266e-01	7.600984e-01	7.977909e-01	1.226127e+00	1.273873e+00
4.620187499676831e-03	7.771499e-01	7.610514e-01	7.913451e-01	1.231009e+00	1.268991e+00
4.717843749676830e-03	7.712969e-01	7.620246e-01	7.847421e-01	1.235892e+00	1.264108e+00
4.815499999676830e-03	7.651778e-01	7.630125e-01	7.780195e-01	1.240775e+00	1.259225e+00
4.913156249676830e-03	7.588034e-01	7.640092e-01	7.712156e-01	1.245658e+00	1.254342e+00
5.108468749676829e-03	7.453347e-01	7.660062e-01	7.575223e-01	1.255423e+00	1.244577e+00
5.206124999676829e-03	7.382646e-01	7.669950e-01	7.507124e-01	1.260306e+00	1.239694e+00
5.303781249676828e-03	7.309874e-01	7.679700e-01	7.439798e-01	1.265189e+00	1.234811e+00
5.401437499676828e-03	7.235162e-01	7.689255e-01	7.373633e-01	1.270072e+00	1.229928e+00
5.499093749676828e-03	7.158645e-01	7.698566e-01	7.309003e-01	1.274955e+00	1.225045e+00
5.596749999676827e-03	7.080458e-01	7.707582e-01	7.246269e-01	1.279837e+00	1.220163e+00
5.694406249676827e-03	7.000744e-01	7.716256e-01	7.185768e-01	1.284720e+00	1.215280e+00
5.792062499676827e-03	6.919645e-01	7.724550e-01	7.127811e-01	1.289603e+00	1.210397e+00
5.889718749676826e-03	6.837307e-01	7.732424e-01	7.072676e-01	1.294486e+00	1.205514e+00
5.987374999676826e-03	6.753875e-01	7.739847e-01	7.020603e-01	1.299369e+00	1.200631e+00
6.085031249676826e-03	6.669497e-01	7.746794e-01	6.971785e-01	1.304252e+00	1.195748e+00
6.182687499676825e-03	6.584316e-01	7.753248e-01	6.926367e-01	1.309134e+00	1.190866e+00
6.280343749676825e-03	6.498473e-01	7.759197e-01	6.884442e-01	1.314017e+00	1.185983e+00
6.377999999676824e-03	6.412095e-01	7.764640e-01	6.846045e-01	1.318900e+00	1.181100e+00
6.475656249676824e-03	6.325301e-01	7.769579e-01	6.811157e-01	1.323783e+00	1.176217e+00
6.573312499676824e-03	6.238195e-01	7.774028e-01	6.779705e-01	1.328666e+00	1.171334e+00
6.670968749676823e-03	6.150857e-01	7.778003e-01	6.751568e-01	1.333548e+00	1.166452e+00
6.768624999676823e-03	6.063347e-01	7.781532e-01	6.726583e-01	1.338431e+00	1.161569e+00
6.866281249676823e-03	5.975699e-01	7.784640e-01	6.704552e-01	1.343314e+00	1.156686e+00
6.963937499676822e-03	5.887920e-01	7.787362e-01	6.685255e-01	1.348197e+00	1.151803e+00
7.061593749676822e-03	5.799991e-01	7.789730e-01	6.668454e-01	1.353080e+00	1.146920e+00
7.159249999676822e-03	5.711873e-01	7.791779e-01	6.653910e-01	1.357962e+00	1.142038e+00
7.256906249676821e-03	5.623504e-01	7.793543e-01	6.641381e-01	1.362845e+00	1.137155e+00
7.354562499676821e-03	5.534813e-01	7.795057e-01	6.630636e-01	1.367728e+00	1.132272e+00
7.452218749676821e-03	5.445724e-01	7.796349e-01	6.621457e-01	1.372611e+00	1.127389e+00
7.549874999676820e-03	5.356162e-01	7.797449e-01	6.613640e-01	1.377494e+00	1.122506e+00
7.647531249676820e-03	5.266066e-01	7.798383e-01	6.607000e-01	1.382377e+00	1.117623e+00
7.745187499676820e-03	5.175389e-01	7.799175e-01	6.601372e-01	1.387259e+00	1.112741e+00
7.842843749676819e-03	5.084109e-01	7.799845e-01	6.596606e-01	1.392142e+00	1.107858e+00
7.940499999676819e-03	4.992230e-01	7.800413e-01	6.592573e-01	1.397025e+00	1.102975e+00
8.038156249676819e-03	4.899776e-01	7.800893e-01	6.589157e-01	1.401908e+00	1.098092e+00
8.135812499676818e-03	4.806798e-01	7.801301e-01	6.586258e-01	1.406791e+00	1.093209e+00
8.233468749676818e-03	4.713358e-01	7.801648e-01	6.583791e-01	1.411673e+00	1.088327e+00
8.331124999676818e-03	4.619535e-01	7.801945e-01	6.581681e-01	1.416556e+00	1.083444e+00
8.428781249676817e-03	4.525407e-01	7.802200e-01	6.579866e-01	1.421439e+00	1.078561e+00
8.526437499676817e-03	4.431054e-01	7.802421e-01	6.578293e-01	1.426322e+00	1.073678e+00
8.624093749676816e-03	4.336550e-01	7.802614e-01	6.576918e-01	1.431205e+00	1.068795e+00
8.721749999676816e-03	4.241960e-01	7.802785e-01	6.575702e-01	1.436087e+00	1.063913e+00
8.819406249676816e-03	4.147341e-01	7.802938e-01	6.574616e-01	1.440970e+00	1.059030e+00
8.917062499676815e-03	4.052739e-01	7.803076e-01	6.573634e-01	1.445853e+00	1.054147e+00
9.014718749676815e-03	3.958190e-01	7.803202e-01	6.572735e-01	1.450736e+00	1.049264e+00
9.112374999676815e-03	3.863726e-01	7.803320e-01	6.571903e-01	1.455619e+00	1.044381e+00
9.210031249676814e-03	3.769369e-01	7.803429e-01	6.571125e-01	1.460502e+00	1.039498e+00
9.405343749676814e-03	3.581059e-01	7.803631e-01	6.569686e-01	1.470267e+00	1.029733e+00
9.600656249676813e-03	3.393410e-01	7.803819e-01	6.568356e-01	1.480033e+00	1.019967e+00
9.954656251939132e-03	3.055611e-01	7.804135e-01	6.566105e-01	1.497733e+00	1.002267e+00
1.000453437480609e-02	3.015361e-01	7.804170e-01	6.565853e-01	1.499773e+00	1.000227e+00
1.033587811898869e-02	3.331431e-01	7.803876e-01	6.567940e-01	1.483206e+00	1.016794e+00
1.053119061898869e-02	3.519303e-01	7.803692e-01	6.569242e-01	1.473441e+00	1.026559e+00
1.072650311898869e-02	3.707696e-01	7.803496e-01	6.570640e-01	1.463675e+00	1.036325e+00
1.082415936898869e-02	3.802066e-01	7.803390e-01	6.571390e-01	1.458792e+00	1.041208e+00
1.092181561898869e-02	3.896535e-01	7.803278e-01	6.572186e-01	1.453909e+00	1.046091e+00
1.101947186898869e-02	3.991088e-01	7.803158e-01	6.573040e-01	1.449026e+00	1.050974e+00
1.111712811898869e-02	4.085702e-01	7.803028e-01	6.573966e-01	1.444144e+00	1.055856e+00
1.121478436898869e-02	4.180348e-01	7.802885e-01	6.574981e-01	1.439261e+00	1.060739e+00
1.131244061898869e-02	4.274988e-01	7.802725e-01	6.576110e-01	1.434378e+00	1.065622e+00
1.141009686898869e-02	4.369575e-01	7.802547e-01	6.577377e-01	1.429495e+00	1.070505e+00
1.150775311898869e-02	4.464050e-01	7.802343e-01	6.578817e-01	1.424612e+00	1.075388e+00
1.160540936898869e-02	4.558345e-01	7.802111e-01	6.580468e-01	1.419730e+00	1.080270e+00
1.170306561898869e-02	4.652385e-01	7.801841e-01	6.582379e-01	1.414847e+00	1.085153e+00
1.180072186898869e-02	4.746090e-01	7.801528e-01	6.584606e-01	1.409964e+00	1.090036e+00
1.189837811898869e-02	4.839382e-01	7.801160e-01	6.587214e-01	1.405081e+00	1.094919e+00
1.199603436898869e-02	4.932188e-01	7.800727e-01	6.590283e-01	1.400198e+00	1.099802e+00
1.209369061898869e-02	5.024449e-01	7.800217e-01	6.593902e-01	1.395316e+00	1.104684e+00
1.219134686898869e-02	5.116124e-01	7.799614e-01	6.598176e-01	1.390433e+00	1.109567e+00
1.228900311898868e-02	5.207193e-01	7.798902e-01	6.603227e-01	1.385550e+00	1.114450e+00
1.238665936898868e-02	5.297665e-01	7.798061e-01	6.609189e-01	1.380667e+00	1.119333e+00
1.248431561898868e-02	5.387570e-01	7.797070e-01	6.616219e-01	1.375784e+00	1.124216e+00
1.258197186898868e-02	5.476959e-01	7.795902e-01	6.624488e-01	1.370901e+00	1.129099e+00
1.267962811898868e-02	5.565901e-01	7.794533e-01	6.634189e-01	1.366019e+00	1.133981e+00
1.277728436898868e-02	5.654471e-01	7.792933e-01	6.645529e-01	1.361136e+00	1.138864e+00
1.287494061898868e-02	5.742745e-01	7.791069e-01	6.658733e-01	1.356253e+00	1.143747e+00
1.297259686898868e-02	5.830792e-01	7.788907e-01	6.674036e-01	1.351370e+00	1.148630e+00
1.307025311898868e-02	5.918665e-01	7.786415e-01	6.691678e-01	1.346487e+00	1.153513e+00
1.316790936898868e-02	6.006397e-01	7.783556e-01	6.711901e-01	1.341605e+00	1.158395e+00
1.326556561898868e-02	6.093999e-01	7.780298e-01	6.734936e-01	1.336722e+00	1.163278e+00
1.336322186898868e-02	6.181454e-01	7.776610e-01	6.760998e-01	1.331839e+00	1.168161e+00
1.346087811898868e-02	6.268719e-01	7.772465e-01	6.790272e-01	1.326956e+00	1.173044e+00
1.355853436898868e-02	6.355727e-01	7.767839e-01	6.822909e-01	1.322073e+00	1.177927e+00
1.365619061898868e-02	6.442387e-01	7.762718e-01	6.859013e-01	1.317191e+00	1.182809e+00
1.375384686898868e-02	6.528593e-01	7.757092e-01	6.898638e-01	1.312308e+00	1.187692e+00
1.385150311898868e-02	6.614220e-01	7.750958e-01	6.941786e-01	1.307425e+00	1.192575e+00
1.394915936898868e-02	6.699135e-01	7.744323e-01	6.988400e-01	1.302542e+00	1.197458e+00
1.404681561898868e-02	6.783198e-01	7.737199e-01	7.038370e-01	1.297659e+00	1.202341e+00
1.414447186898868e-02	6.866263e-01	7.729609e-01	7.091534e-01	1.292776e+00	1.207224e+00
1.424212811898868e-02	6.948185e-01	7.721578e-01	7.147679e-01	1.287894e+00	1.212106e+00
1.433978436898868e-02	7.028816e-01	7.713141e-01	7.206554e-01	1.283011e+00	1.216989e+00
1.443744061898868e-02	7.108011e-01	7.704338e-01	7.267869e-01	1.278128e+00	1.221872e+00
1.453509686898868e-02	7.185629e-01	7.695209e-01	7.331302e-01	1.273245e+00	1.226755e+00
1.463275311898868e-02	7.261530e-01	7.685803e-01	7.396508e-01	1.268362e+00	1.231638e+00
1.473040936898868e-02	7.335577e-01	7.676171e-01	7.463120e-01	1.263480e+00	1.236520e+00
1.482806561898868e-02	7.407639e-01	7.666365e-01	7.530758e-01	1.258597e+00	1.241403e+00
1.512103436898867e-02	7.610633e-01	7.636458e-01	7.735903e-01	1.243948e+00	1.256052e+00
1.521869061898867e-02	7.673496e-01	7.626516e-01	7.803704e-01	1.239066e+00	1.260934e+00
1.531634686898867e-02	7.733767e-01	7.616684e-01	7.870556e-01	1.234183e+00	1.265817e+00
1.541400311898867e-02	7.791340e-01	7.607018e-01	7.936079e-01	1.229300e+00	1.270700e+00
1.551165936898867e-02	7.846119e-01	7.597575e-01	7.999905e-01	1.224417e+00	1.275583e+00
1.560931561898867e-02	7.898015e-01	7.588407e-01	8.061684e-01	1.219534e+00	1.280466e+00
1.570697186898867e-02	7.946951e-01	7.579566e-01	8.121089e-01	1.214651e+00	1.285349e+00
1.580462811898867e-02	7.992869e-01	7.571099e-01	8.177823e-01	1.209769e+00	1.290231e+00
1.590228436898868e-02	8.035725e-01	7.563046e-01	8.231624e-01	1.204886e+00	1.295114e+00
1.599994061898868e-02	8.075495e-01	7.555447e-01	8.282269e-01	1.200003e+00	1.299997e+00
1.609759686898868e-02	8.112182e-01	7.548329e-01	8.329582e-01	1.195120e+00	1.304880e+00
1.619525311898868e-02	8.145812e-01	7.541715e-01	8.373438e-01	1.190237e+00	1.309763e+00
1.629290936898868e-02	8.176439e-01	7.535620e-01	8.413765e-01	1.185355e+00	1.314645e+00
1.639056561898868e-02	8.204146e-01	7.530049e-01	8.450549e-01	1.180472e+00	1.319528e+00
1.648822186898868e-02	8.229043e-01	7.525000e-01	8.483828e-01	1.175589e+00	1.324411e+00
1.658587811898869e-02	8.251268e-01	7.520460e-01	8.513697e-01	1.170706e+00	1.329294e+00
1.668353436898869e-02	8.270978e-01	7.516412e-01	8.540294e-01	1.165823e+00	1.334177e+00
1.678119061898869e-02	8.288349e-01	7.512828e-01	8.563800e-01	1.160941e+00	1.339059e+00
1.687884686898869e-02	8.303570e-01	7.509680e-01	8.584424e-01	1.156058e+00	1.343942e+00
1.697650311898869e-02	8.316836e-01	7.506934e-01	8.602400e-01	1.151175e+00	1.348825e+00
1.707415936898869e-02	8.328346e-01	7.504553e-01	8.617971e-01	1.146292e+00	1.353708e+00
1.717181561898869e-02	8.338292e-01	7.502500e-01	8.631384e-01	1.141409e+00	1.358591e+00
1.726947186898870e-02	8.346856e-01	7.500739e-01	8.642882e-01	1.136526e+00	1.363474e+00
1.736712811898870e-02	8.354214e-01	7.499235e-01	8.652694e-01	1.131644e+00	1.368356e+00
1.746478436898870e-02	8.360525e-01	7.497956e-01	8.661039e-01	1.126761e+00	1.373239e+00
1.756244061898870e-02	8.365934e-01	7.496871e-01	8.668114e-01	1.121878e+00	1.378122e+00
1.766009686898870e-02	8.370571e-01	7.495952e-01	8.674099e-01	1.116995e+00	1.383005e+00
1.775775311898870e-02	8.374549e-01	7.495176e-01	8.679153e-01	1.112112e+00	1.387888e+00
1.785540936898870e-02	8.377971e-01	7.494521e-01	8.683420e-01	1.107230e+00	1.392770e+00
1.795306561898870e-02	8.380924e-01	7.493968e-01	8.687021e-01	1.102347e+00	1.397653e+00
1.805072186898871e-02	8.383484e-01	7.493500e-01	8.690065e-01	1.097464e+00	1.402536e+00
1.814837811898871e-02	8.385718e-01	7.493104e-01	8.692645e-01	1.092581e+00	1.407419e+00
1.824603436898871e-02	8.387680e-01	7.492766e-01	8.694840e-01	1.087698e+00	1.412302e+00
1.834369061898871e-02	8.389418e-01	7.492478e-01	8.696718e-01	1.082816e+00	1.417184e+00
1.844134686898871e-02	8.390973e-01	7.492229e-01	8.698335e-01	1.077933e+00	1.422067e+00
1.853900311898871e-02	8.392377e-01	7.492013e-01	8.699740e-01	1.073050e+00	1.426950e+00
1.863665936898871e-02	8.393660e-01	7.491823e-01	8.700973e-01	1.068167e+00	1.431833e+00
1.873431561898872e-02	8.394843e-01	7.491655e-01	8.702067e-01	1.063284e+00	1.436716e+00
1.883197186898872e-02	8.395946e-01	7.491505e-01	8.703049e-01	1.058401e+00	1.441599e+00
1.892962811898872e-02	8.396986e-01	7.491367e-01	8.703941e-01	1.053519e+00	1.446481e+00
1.902728436898872e-02	8.397973e-01	7.491241e-01	8.704762e-01	1.048636e+00	1.451364e+00
1.912494061898872e-02	8.398919e-01	7.491123e-01	8.705527e-01	1.043753e+00	1.456247e+00
1.932025311898872e-02	8.400716e-01	7.490907e-01	8.706930e-01	1.033987e+00	1.466013e+00
1.951556561898873e-02	8.402426e-01	7.490709e-01	8.708218e-01	1.024222e+00	1.475778e+00
1.980853436898873e-02	8.404888e-01	7.490431e-01	8.710022e-01	1.009573e+00	1.490427e+00
2.000938093810113e-02	8.406378e-01	7.490266e-01	8.711098e-01	1.000469e+00	1.499531e+00
2.033602657151691e-02	8.403685e-01	7.490567e-01	8.709147e-01	1.016801e+00	1.483199e+00
2.062899532151691e-02	8.401167e-01	7.490855e-01	8.707275e-01	1.031450e+00	1.468550e+00
2.082430782151691e-02	8.399396e-01	7.491066e-01	8.705907e-01	1.041215e+00	1.458785e+00
2.092196407151692e-02	8.398468e-01	7.491180e-01	8.705168e-01	1.046098e+00	1.453902e+00
2.101962032151692e-02	8.397504e-01	7.491302e-01	8.704377e-01	1.050981e+00	1.449019e+00
2.111727657151692e-02	8.396493e-01	7.491433e-01	8.703524e-01	1.055864e+00	1.444136e+00
2.121493282151692e-02	8.395425e-01	7.491577e-01	8.702591e-01	1.060747e+00	1.439253e+00
2.131258907151692e-02	8.394285e-01	7.491736e-01	8.701558e-01	1.065629e+00	1.434371e+00
2.141024532151692e-02	8.393058e-01	7.491915e-01	8.700402e-01	1.070512e+00	1.429488e+00
2.150790157151692e-02	8.391719e-01	7.492116e-01	8.699091e-01	1.075395e+00	1.424605e+00
2.160555782151692e-02	8.390247e-01	7.492347e-01	8.697590e-01	1.080278e+00	1.419722e+00
2.170321407151693e-02	8.388608e-01	7.492615e-01	8.695855e-01	1.085161e+00	1.414839e+00
2.180087032151693e-02	8.386768e-01	7.492926e-01	8.693834e-01	1.090044e+00	1.409956e+00
2.189852657151693e-02	8.384682e-01	7.493291e-01	8.691464e-01	1.094926e+00	1.405074e+00
2.199618282151693e-02	8.382299e-01	7.493721e-01	8.688673e-01	1.099809e+00	1.400191e+00
2.209383907151693e-02	8.379559e-01	7.494230e-01	8.685375e-01	1.104692e+00	1.395308e+00
2.219149532151693e-02	8.376391e-01	7.494831e-01	8.681470e-01	1.109575e+00	1.390425e+00
2.228915157151693e-02	8.372713e-01	7.495543e-01	8.676844e-01	1.114458e+00	1.385542e+00
2.238680782151694e-02	8.368432e-01	7.496387e-01	8.671362e-01	1.119340e+00	1.380660e+00
2.248446407151694e-02	8.363440e-01	7.497384e-01	8.664877e-01	1.124223e+00	1.375777e+00
2.258212032151694e-02	8.357615e-01	7.498562e-01	8.657219e-01	1.129106e+00	1.370894e+00
2.267977657151694e-02	8.350820e-01	7.499949e-01	8.648199e-01	1.133989e+00	1.366011e+00
2.277743282151694e-02	8.342903e-01	7.501575e-01	8.637608e-01	1.138872e+00	1.361128e+00
2.287508907151694e-02	8.333698e-01	7.503476e-01	8.625225e-01	1.143754e+00	1.356246e+00
2.297274532151694e-02	8.323025e-01	7.505686e-01	8.610810e-01	1.148637e+00	1.351363e+00
2.307040157151695e-02	8.310696e-01	7.508244e-01	8.594120e-01	1.153520e+00	1.346480e+00
2.316805782151695e-02	8.296515e-01	7.511184e-01	8.574908e-01	1.158403e+00	1.341597e+00
2.326571407151695e-02	8.280286e-01	7.514543e-01	8.552934e-01	1.163286e+00	1.336714e+00
2.336337032151695e-02	8.261814e-01	7.518352e-01	8.527975e-01	1.168169e+00	1.331831e+00
2.346102657151695e-02	8.240918e-01	7.522641e-01	8.499834e-01	1.173051e+00	1.326949e+00
2.355868282151695e-02	8.217428e-01	7.527431e-01	8.468349e-01	1.177934e+00	1.322066e+00
2.365633907151695e-02	8.191196e-01	7.532737e-01	8.433402e-01	1.182817e+00	1.317183e+00
2.375399532151696e-02	8.162099e-01	7.538567e-01	8.394926e-01	1.187700e+00	1.312300e+00
2.385165157151696e-02	8.130038e-01	7.544920e-01	8.352906e-01	1.192583e+00	1.307417e+00
2.394930782151696e-02	8.094946e-01	7.551785e-01	8.307384e-01	1.197465e+00	1.302535e+00
2.404696407151696e-02	8.056780e-01	7.559144e-01	8.258459e-01	1.202348e+00	1.297652e+00
2.414462032151696e-02	8.015527e-01	7.566972e-01	8.206280e-01	1.207231e+00	1.292769e+00
2.424227657151696e-02	7.971196e-01	7.575234e-01	8.151046e-01	1.212114e+00	1.287886e+00
2.433993282151696e-02	7.923822e-01	7.583892e-01	8.092999e-01	1.216997e+00	1.283003e+00
2.443758907151697e-02	7.873455e-01	7.592901e-01	8.032419e-01	1.221879e+00	1.278121e+00
2.453524532151697e-02	7.820165e-01	7.602211e-01	7.969618e-01	1.226762e+00	1.273238e+00
2.463290157151697e-02	7.764032e-01	7.611771e-01	7.904935e-01	1.231645e+00	1.268355e+00
2.473055782151697e-02	7.705151e-01	7.621526e-01	7.838728e-01	1.236528e+00	1.263472e+00
2.482821407151697e-02	7.643622e-01	7.631419e-01	7.771375e-01	1.241411e+00	1.258589e+00
